
**** 06/02/21 16:59:37 ***** PSpice 16.6.0 (October 2012) ***** ID# 0 ********

 ** Profile: "SCHEMATIC1-cons"  [ D:\Experiment7\7-5\7-5-PSpiceFiles\SCHEMATIC1\cons.sim ] 


 ****     CIRCUIT DESCRIPTION


******************************************************************************




** Creating circuit file "cons.cir" 
** WARNING: THIS AUTOMATICALLY GENERATED FILE MAY BE OVERWRITTEN BY SUBSEQUENT SIMULATIONS

*Libraries: 
* Profile Libraries :
* Local Libraries :
* From [PSPICE NETLIST] section of D:\Cadence\Cadence\SPB_Data\cdssetup\OrCAD_PSpice/16.6.0/PSpice.ini file:
.lib "nom.lib" 

*Analysis directives: 
.TRAN  0 20ms 10ms 1us 
.OPTIONS ADVCONV
.PROBE64 V(alias(*)) I(alias(*)) W(alias(*)) D(alias(*)) NOISE(alias(*)) 
.INC "..\SCHEMATIC1.net" 



**** INCLUDING SCHEMATIC1.net ****
* source 7-5
V_V3         0 -15V 15Vdc
V_V2         +15V 0 15Vdc
X_U1         N06126 N06341 +15V -15V N06107 LM741
C_C1         N06126 N059941  0.01u  TC=0,0 
C_C2         0 N06126  0.01u  TC=0,0 
R_R2         0 N06126  10k TC=0,0 
R_R3         0 N06341  4.7k TC=0,0 
R_R4         N059941 N06107  10k TC=0,0 
R_R5         N06341 N06476  10k TC=0,0 
R_R6         N06476 N06107  4.7k TC=0,0 
D_D1         N06476 N06107 D1N4007 
D_D2         N06107 N06476 D1N4007 

**** RESUMING cons.cir ****
.END

**** 06/02/21 16:59:37 ***** PSpice 16.6.0 (October 2012) ***** ID# 0 ********

 ** Profile: "SCHEMATIC1-cons"  [ D:\Experiment7\7-5\7-5-PSpiceFiles\SCHEMATIC1\cons.sim ] 


 ****     Diode MODEL PARAMETERS


******************************************************************************




               D1N4007         D1N4001         X_U1.x_lm741.dx X_U1.x_lm741.dy 
          IS   14.110000E-09   14.110000E-09  800.000000E-18  800.000000E-18 
           N    1.984           1.984                                        
         IKF   94.81           94.81                                         
          BV    1.500000E+03   75                                            
         IBV   10.000000E-06   10.000000E-06                                 
          RS     .03389          .03389         1               1.000000E-03 
          TT    5.700000E-06    5.700000E-06                                 
         CJO   25.890000E-12   25.890000E-12                   10.000000E-12 
          VJ     .3245           .3245                                       
           M     .44             .44                                         


**** 06/02/21 16:59:37 ***** PSpice 16.6.0 (October 2012) ***** ID# 0 ********

 ** Profile: "SCHEMATIC1-cons"  [ D:\Experiment7\7-5\7-5-PSpiceFiles\SCHEMATIC1\cons.sim ] 


 ****     BJT MODEL PARAMETERS


******************************************************************************




               X_U1.x_lm741.qx 
               NPN             
       LEVEL    1            
          IS  800.000000E-18 
          BF   93.75         
          NF    1            
          BR    1            
          NR    1            
         ISS    0            
          RE    0            
          RC    0            
         CJE    0            
         VJE     .75         
         CJC    0            
         VJC     .75         
         MJC     .33         
        XCJC    1            
         CJS    0            
         VJS     .75         
          KF    0            
          AF    1            
          CN    2.42         
           D     .87         


**** 06/02/21 16:59:37 ***** PSpice 16.6.0 (October 2012) ***** ID# 0 ********

 ** Profile: "SCHEMATIC1-cons"  [ D:\Experiment7\7-5\7-5-PSpiceFiles\SCHEMATIC1\cons.sim ] 


 ****     INITIAL TRANSIENT SOLUTION       TEMPERATURE =   27.000 DEG C


******************************************************************************



 NODE   VOLTAGE     NODE   VOLTAGE     NODE   VOLTAGE     NODE   VOLTAGE


( +15V)   15.0000  ( -15V)  -15.0000  (N06107)    -.0020 (N06126)-797.2E-06     

(N06341)-777.9E-06 (N06476)    -.0016 (N059941)    -.0020                       

(X_U1.x_lm741.6) 193.0E-09            (X_U1.x_lm741.7)    -.0020                

(X_U1.x_lm741.8)    -.0020            (X_U1.x_lm741.9)    0.0000                

(X_U1.x_lm741.10)    -.6085           (X_U1.x_lm741.11)   14.9600               

(X_U1.x_lm741.12)   14.9600           (X_U1.x_lm741.13)    -.5946               

(X_U1.x_lm741.14)    -.5946           (X_U1.x_lm741.53)   14.0000               

(X_U1.x_lm741.54)  -14.0000           (X_U1.x_lm741.90)-85.76E-06               

(X_U1.x_lm741.91)   40.0000           (X_U1.x_lm741.92)  -40.0000               

(X_U1.x_lm741.99)    0.0000           




    VOLTAGE SOURCE CURRENTS
    NAME         CURRENT

    V_V3        -1.667E-03
    V_V2        -1.667E-03
    X_U1.x_lm741.vb   1.930E-12
    X_U1.x_lm741.vc   1.400E-11
    X_U1.x_lm741.ve   1.455E-11
    X_U1.x_lm741.vlim  -8.576E-08
    X_U1.x_lm741.vlp  -4.000E-11
    X_U1.x_lm741.vln  -4.000E-11

    TOTAL POWER DISSIPATION   5.00E-02  WATTS



          JOB CONCLUDED

**** 06/02/21 16:59:37 ***** PSpice 16.6.0 (October 2012) ***** ID# 0 ********

 ** Profile: "SCHEMATIC1-cons"  [ D:\Experiment7\7-5\7-5-PSpiceFiles\SCHEMATIC1\cons.sim ] 


 ****     JOB STATISTICS SUMMARY


******************************************************************************



  Total job time (using Solver 1)   =         .50
