
**** 06/02/21 15:06:51 ***** PSpice 16.6.0 (October 2012) ***** ID# 0 ********

 ** Profile: "SCHEMATIC1-cons"  [ D:\Experiment7\7-1\7-1-PSpiceFiles\SCHEMATIC1\cons.sim ] 


 ****     CIRCUIT DESCRIPTION


******************************************************************************




** Creating circuit file "cons.cir" 
** WARNING: THIS AUTOMATICALLY GENERATED FILE MAY BE OVERWRITTEN BY SUBSEQUENT SIMULATIONS

*Libraries: 
* Profile Libraries :
* Local Libraries :
* From [PSPICE NETLIST] section of D:\Cadence\Cadence\SPB_Data\cdssetup\OrCAD_PSpice/16.6.0/PSpice.ini file:
.lib "nom.lib" 

*Analysis directives: 
.TRAN  0 60ms 25ms 
.OPTIONS ADVCONV
.PROBE64 V(alias(*)) I(alias(*)) W(alias(*)) D(alias(*)) NOISE(alias(*)) 
.INC "..\SCHEMATIC1.net" 



**** INCLUDING SCHEMATIC1.net ****
* source 7-1
V_V2         +15V 0 15Vdc
V_V3         0 -15V 15Vdc
X_U1         N03209 N03653 +15V -15V N030594 LM741
R_R1         N030594 N03585  2k TC=0,0 
R_R2         N03653 N03585  10k TC=0,0 
R_R3         N03209 N03585  100k TC=0,0 
R_R4         0 N03209  100k TC=0,0 
C_C1         0 N03653  0.1u  TC=0,0 
D_D3         0 N039501 D1N4734 
D_D4         N03585 N039501 D1N4734 

**** RESUMING cons.cir ****
.END

**** 06/02/21 15:06:51 ***** PSpice 16.6.0 (October 2012) ***** ID# 0 ********

 ** Profile: "SCHEMATIC1-cons"  [ D:\Experiment7\7-1\7-1-PSpiceFiles\SCHEMATIC1\cons.sim ] 


 ****     Diode MODEL PARAMETERS


******************************************************************************




               D1N4734         X_U1.x_lm741.dx X_U1.x_lm741.dy 
          IS    1.085000E-15  800.000000E-18  800.000000E-18 
         ISR    2.811000E-09                                 
          BV    5.6                                          
         IBV     .37157                                      
         NBV     .64726                                      
        IBVL    1.000000E-03                                 
        NBVL    6.5761                                       
          RS     .7945          1               1.000000E-03 
         CJO  157.000000E-12                   10.000000E-12 
          VJ     .75                                         
           M     .2966                                       
        TBV1  267.860000E-06                                 


**** 06/02/21 15:06:51 ***** PSpice 16.6.0 (October 2012) ***** ID# 0 ********

 ** Profile: "SCHEMATIC1-cons"  [ D:\Experiment7\7-1\7-1-PSpiceFiles\SCHEMATIC1\cons.sim ] 


 ****     BJT MODEL PARAMETERS


******************************************************************************




               X_U1.x_lm741.qx 
               NPN             
       LEVEL    1            
          IS  800.000000E-18 
          BF   93.75         
          NF    1            
          BR    1            
          NR    1            
         ISS    0            
          RE    0            
          RC    0            
         CJE    0            
         VJE     .75         
         CJC    0            
         VJC     .75         
         MJC     .33         
        XCJC    1            
         CJS    0            
         VJS     .75         
          KF    0            
          AF    1            
          CN    2.42         
           D     .87         


**** 06/02/21 15:06:51 ***** PSpice 16.6.0 (October 2012) ***** ID# 0 ********

 ** Profile: "SCHEMATIC1-cons"  [ D:\Experiment7\7-1\7-1-PSpiceFiles\SCHEMATIC1\cons.sim ] 


 ****     INITIAL TRANSIENT SOLUTION       TEMPERATURE =   27.000 DEG C


******************************************************************************



 NODE   VOLTAGE     NODE   VOLTAGE     NODE   VOLTAGE     NODE   VOLTAGE


( +15V)   15.0000  ( -15V)  -15.0000  (N03209)    -.0072 (N03585)    -.0063     

(N03653)    -.0071 (N030594)    -.0062                   (N039501)    -.0031    

(X_U1.x_lm741.6) 579.3E-09            (X_U1.x_lm741.7)    -.0062                

(X_U1.x_lm741.8)    -.0062            (X_U1.x_lm741.9)    0.0000                

(X_U1.x_lm741.10)    -.6148           (X_U1.x_lm741.11)   14.9600               

(X_U1.x_lm741.12)   14.9600           (X_U1.x_lm741.13)    -.6009               

(X_U1.x_lm741.14)    -.6009           (X_U1.x_lm741.53)   14.0000               

(X_U1.x_lm741.54)  -14.0000           (X_U1.x_lm741.90) 87.76E-06               

(X_U1.x_lm741.91)   40.0000           (X_U1.x_lm741.92)  -40.0000               

(X_U1.x_lm741.99)    0.0000           




    VOLTAGE SOURCE CURRENTS
    NAME         CURRENT

    V_V2        -1.667E-03
    V_V3        -1.667E-03
    X_U1.x_lm741.vb   5.793E-12
    X_U1.x_lm741.vc   1.401E-11
    X_U1.x_lm741.ve   1.455E-11
    X_U1.x_lm741.vlim   8.776E-08
    X_U1.x_lm741.vlp  -4.000E-11
    X_U1.x_lm741.vln  -4.000E-11

    TOTAL POWER DISSIPATION   5.00E-02  WATTS



          JOB CONCLUDED

**** 06/02/21 15:06:51 ***** PSpice 16.6.0 (October 2012) ***** ID# 0 ********

 ** Profile: "SCHEMATIC1-cons"  [ D:\Experiment7\7-1\7-1-PSpiceFiles\SCHEMATIC1\cons.sim ] 


 ****     JOB STATISTICS SUMMARY


******************************************************************************



  Total job time (using Solver 1)   =         .11
