
**** 05/16/21 14:17:53 ***** PSpice 16.6.0 (October 2012) ***** ID# 0 ********

 ** Profile: "SCHEMATIC1-simulation1"  [ D:\EXPERIMENT6\6-5\5-PSpiceFiles\SCHEMATIC1\simulation1.sim ] 


 ****     CIRCUIT DESCRIPTION


******************************************************************************




** Creating circuit file "simulation1.cir" 
** WARNING: THIS AUTOMATICALLY GENERATED FILE MAY BE OVERWRITTEN BY SUBSEQUENT SIMULATIONS

*Libraries: 
* Profile Libraries :
* Local Libraries :
* From [PSPICE NETLIST] section of D:\Cadence\Cadence\SPB_Data\cdssetup\OrCAD_PSpice/16.6.0/PSpice.ini file:
.lib "nom.lib" 

*Analysis directives: 
.TRAN  0 0.2s 0 0.1ms 
.OPTIONS ADVCONV
.PROBE64 V(alias(*)) I(alias(*)) W(alias(*)) D(alias(*)) NOISE(alias(*)) 
.INC "..\SCHEMATIC1.net" 



**** INCLUDING SCHEMATIC1.net ****
* source 5
V_V3         0 -15V 15Vdc
R_R3         N05948 N06018  10k TC=0,0 
X_U1         N06018 N06290 +15V -15V N05846 LM741
R_R2         N06290 N05846  10k TC=0,0 
V_V2         +15V 0 15Vdc
V_V5         N05948 N059801  
+SIN 0 0.3 50 0 0 0
R_R4         0 N05846  50 TC=0,0 
V_V6         N059801 0 1Vdc

**** RESUMING simulation1.cir ****
.END

**** 05/16/21 14:17:53 ***** PSpice 16.6.0 (October 2012) ***** ID# 0 ********

 ** Profile: "SCHEMATIC1-simulation1"  [ D:\EXPERIMENT6\6-5\5-PSpiceFiles\SCHEMATIC1\simulation1.sim ] 


 ****     Diode MODEL PARAMETERS


******************************************************************************




               X_U1.x_lm741.dx X_U1.x_lm741.dy 
          IS  800.000000E-18  800.000000E-18 
          RS    1               1.000000E-03 
         CJO                   10.000000E-12 


**** 05/16/21 14:17:53 ***** PSpice 16.6.0 (October 2012) ***** ID# 0 ********

 ** Profile: "SCHEMATIC1-simulation1"  [ D:\EXPERIMENT6\6-5\5-PSpiceFiles\SCHEMATIC1\simulation1.sim ] 


 ****     BJT MODEL PARAMETERS


******************************************************************************




               X_U1.x_lm741.qx 
               NPN             
       LEVEL    1            
          IS  800.000000E-18 
          BF   93.75         
          NF    1            
          BR    1            
          NR    1            
         ISS    0            
          RE    0            
          RC    0            
         CJE    0            
         VJE     .75         
         CJC    0            
         VJC     .75         
         MJC     .33         
        XCJC    1            
         CJS    0            
         VJS     .75         
          KF    0            
          AF    1            
          CN    2.42         
           D     .87         


**** 05/16/21 14:17:53 ***** PSpice 16.6.0 (October 2012) ***** ID# 0 ********

 ** Profile: "SCHEMATIC1-simulation1"  [ D:\EXPERIMENT6\6-5\5-PSpiceFiles\SCHEMATIC1\simulation1.sim ] 


 ****     INITIAL TRANSIENT SOLUTION       TEMPERATURE =   27.000 DEG C


******************************************************************************



 NODE   VOLTAGE     NODE   VOLTAGE     NODE   VOLTAGE     NODE   VOLTAGE


( +15V)   15.0000  ( -15V)  -15.0000  (N05846)    1.0000 (N05948)    1.0000     

(N06018)     .9992 (N06290)     .9992 (N059801)    1.0000                       

(X_U1.x_lm741.6)-380.8E-06            (X_U1.x_lm741.7)    1.9999                

(X_U1.x_lm741.8)    1.9999            (X_U1.x_lm741.9)    0.0000                

(X_U1.x_lm741.10)     .3913           (X_U1.x_lm741.11)   14.9600               

(X_U1.x_lm741.12)   14.9600           (X_U1.x_lm741.13)     .4053               

(X_U1.x_lm741.14)     .4053           (X_U1.x_lm741.53)   14.0000               

(X_U1.x_lm741.54)  -14.0000           (X_U1.x_lm741.90)   19.9990               

(X_U1.x_lm741.91)   40.0000           (X_U1.x_lm741.92)  -40.0000               

(X_U1.x_lm741.99)    0.0000           




    VOLTAGE SOURCE CURRENTS
    NAME         CURRENT

    V_V3        -1.667E-03
    V_V2        -1.667E-03
    V_V5        -8.018E-08
    V_V6        -8.018E-08
    X_U1.x_lm741.vb  -3.808E-09
    X_U1.x_lm741.vc   1.300E-11
    X_U1.x_lm741.ve   1.555E-11
    X_U1.x_lm741.vlim   2.000E-02
    X_U1.x_lm741.vlp  -2.000E-11
    X_U1.x_lm741.vln  -6.000E-11

    TOTAL POWER DISSIPATION   5.00E-02  WATTS



          JOB CONCLUDED

**** 05/16/21 14:17:53 ***** PSpice 16.6.0 (October 2012) ***** ID# 0 ********

 ** Profile: "SCHEMATIC1-simulation1"  [ D:\EXPERIMENT6\6-5\5-PSpiceFiles\SCHEMATIC1\simulation1.sim ] 


 ****     JOB STATISTICS SUMMARY


******************************************************************************



  Total job time (using Solver 1)   =         .06
