
**** 05/24/21 15:05:48 ***** PSpice 16.6.0 (October 2012) ***** ID# 0 ********

 ** Profile: "SCHEMATIC1-simulation1"  [ D:\Experiment6\6-6\6-pspicefiles\schematic1\simulation1.sim ] 


 ****     CIRCUIT DESCRIPTION


******************************************************************************




** Creating circuit file "simulation1.cir" 
** WARNING: THIS AUTOMATICALLY GENERATED FILE MAY BE OVERWRITTEN BY SUBSEQUENT SIMULATIONS

*Libraries: 
* Profile Libraries :
* Local Libraries :
* From [PSPICE NETLIST] section of D:\Cadence\Cadence\SPB_Data\cdssetup\OrCAD_PSpice/16.6.0/PSpice.ini file:
.lib "nom.lib" 

*Analysis directives: 
.TRAN  0 10ms 1us 
.OPTIONS ADVCONV
.PROBE64 V(alias(*)) I(alias(*)) W(alias(*)) D(alias(*)) NOISE(alias(*)) 
.INC "..\SCHEMATIC1.net" 



**** INCLUDING SCHEMATIC1.net ****
* source 6
R_R2         N07091 N06956  10k TC=0,0 
R_R3         0 N06804  10k TC=0,0 
V_V2         +15V 0 15Vdc
V_V3         0 -15V 15Vdc
X_U1         N06804 N06956 +15V -15V N06674 LM741
C_C1         N06956 N06674  0.1u IC=0 TC=0,0 
R_R4         N06956 N06674  100k TC=0,0 
V_V4         N07091 0  
+PULSE -1 1 0 0.1ns 0.1ns 0.5ms 1ms

**** RESUMING simulation1.cir ****
.END

**** 05/24/21 15:05:48 ***** PSpice 16.6.0 (October 2012) ***** ID# 0 ********

 ** Profile: "SCHEMATIC1-simulation1"  [ D:\Experiment6\6-6\6-pspicefiles\schematic1\simulation1.sim ] 


 ****     Diode MODEL PARAMETERS


******************************************************************************




               X_U1.x_lm741.dx X_U1.x_lm741.dy 
          IS  800.000000E-18  800.000000E-18 
          RS    1               1.000000E-03 
         CJO                   10.000000E-12 


**** 05/24/21 15:05:48 ***** PSpice 16.6.0 (October 2012) ***** ID# 0 ********

 ** Profile: "SCHEMATIC1-simulation1"  [ D:\Experiment6\6-6\6-pspicefiles\schematic1\simulation1.sim ] 


 ****     BJT MODEL PARAMETERS


******************************************************************************




               X_U1.x_lm741.qx 
               NPN             
       LEVEL    1            
          IS  800.000000E-18 
          BF   93.75         
          NF    1            
          BR    1            
          NR    1            
         ISS    0            
          RE    0            
          RC    0            
         CJE    0            
         VJE     .75         
         CJC    0            
         VJC     .75         
         MJC     .33         
        XCJC    1            
         CJS    0            
         VJS     .75         
          KF    0            
          AF    1            
          CN    2.42         
           D     .87         


**** 05/24/21 15:05:48 ***** PSpice 16.6.0 (October 2012) ***** ID# 0 ********

 ** Profile: "SCHEMATIC1-simulation1"  [ D:\Experiment6\6-6\6-pspicefiles\schematic1\simulation1.sim ] 


 ****     INITIAL TRANSIENT SOLUTION       TEMPERATURE =   27.000 DEG C


******************************************************************************



 NODE   VOLTAGE     NODE   VOLTAGE     NODE   VOLTAGE     NODE   VOLTAGE


( +15V)   15.0000  ( -15V)  -15.0000  (N06674)-777.8E-06 (N06804)-797.2E-06     

(N06956)-778.0E-06 (N07091)   -1.0000 (X_U1.x_lm741.6)-1.360E-06                

(X_U1.x_lm741.7)     .0042            (X_U1.x_lm741.8)     .0042                

(X_U1.x_lm741.9)    0.0000            (X_U1.x_lm741.10)    -.6085               

(X_U1.x_lm741.11)   14.9600           (X_U1.x_lm741.12)   14.9600               

(X_U1.x_lm741.13)    -.5946           (X_U1.x_lm741.14)    -.5946               

(X_U1.x_lm741.53)   14.0000           (X_U1.x_lm741.54)  -14.0000               

(X_U1.x_lm741.90)     .1000           (X_U1.x_lm741.91)   40.0000               

(X_U1.x_lm741.92)  -40.0000           (X_U1.x_lm741.99)    0.0000           




    VOLTAGE SOURCE CURRENTS
    NAME         CURRENT

    V_V2        -1.667E-03
    V_V3        -1.667E-03
    V_V4         9.992E-05
    X_U1.x_lm741.vb  -1.360E-11
    X_U1.x_lm741.vc   1.400E-11
    X_U1.x_lm741.ve   1.455E-11
    X_U1.x_lm741.vlim   1.000E-04
    X_U1.x_lm741.vlp  -3.990E-11
    X_U1.x_lm741.vln  -4.010E-11

    TOTAL POWER DISSIPATION   5.01E-02  WATTS



          JOB CONCLUDED

**** 05/24/21 15:05:48 ***** PSpice 16.6.0 (October 2012) ***** ID# 0 ********

 ** Profile: "SCHEMATIC1-simulation1"  [ D:\Experiment6\6-6\6-pspicefiles\schematic1\simulation1.sim ] 


 ****     JOB STATISTICS SUMMARY


******************************************************************************



  Total job time (using Solver 1)   =         .05
