
**** 05/16/21 16:53:34 ***** PSpice 16.6.0 (October 2012) ***** ID# 0 ********

 ** Profile: "SCHEMATIC1-simulation1"  [ D:\Experiment6\6-10\10-pspicefiles\schematic1\simulation1.sim ] 


 ****     CIRCUIT DESCRIPTION


******************************************************************************




** Creating circuit file "simulation1.cir" 
** WARNING: THIS AUTOMATICALLY GENERATED FILE MAY BE OVERWRITTEN BY SUBSEQUENT SIMULATIONS

*Libraries: 
* Profile Libraries :
* Local Libraries :
* From [PSPICE NETLIST] section of D:\Cadence\Cadence\SPB_Data\cdssetup\OrCAD_PSpice/16.6.0/PSpice.ini file:
.lib "nom.lib" 

*Analysis directives: 
.TRAN  0 10ms 0 1us 
.OPTIONS ADVCONV
.PROBE64 V(alias(*)) I(alias(*)) W(alias(*)) D(alias(*)) NOISE(alias(*)) 
.INC "..\SCHEMATIC1.net" 



**** INCLUDING SCHEMATIC1.net ****
* source 10
R_R1         0 N09801  10k TC=0,0 
V_V4         N09791 0  
+SIN 0 4 1k 0 0 0
V_V3         0 -15V 15Vdc
V_V2         +15V 0 15Vdc
R_R2         N09791 N09691  10k TC=0,0 
X_U1         N09801 N09691 +15V -15V N09697 LM741
R_R3         N09801 N09697  100k TC=0,0 
R_R4         N09697 N10120  4.7k TC=0,0 
D_D1         N112370 N10120 D1N4684 
D_D2         N112370 0 D1N4684 

**** RESUMING simulation1.cir ****
.END

**** 05/16/21 16:53:34 ***** PSpice 16.6.0 (October 2012) ***** ID# 0 ********

 ** Profile: "SCHEMATIC1-simulation1"  [ D:\Experiment6\6-10\10-pspicefiles\schematic1\simulation1.sim ] 


 ****     Diode MODEL PARAMETERS


******************************************************************************




               D1N4684         X_U1.x_lm741.dx X_U1.x_lm741.dy 
          IS   80.216370E-09  800.000000E-18  800.000000E-18 
           N    2.80334                                      
         ISR    4.260400E-06                                 
          NR    4.11012                                      
          BV    3.4781                                       
         IBV     .049004                                     
          RS     .034126        1               1.000000E-03 
          TT  150.490000E-09                                 
         CJO  135.000000E-12                   10.000000E-12 
          VJ     .75                                         
           M     .5033                                       


**** 05/16/21 16:53:34 ***** PSpice 16.6.0 (October 2012) ***** ID# 0 ********

 ** Profile: "SCHEMATIC1-simulation1"  [ D:\Experiment6\6-10\10-pspicefiles\schematic1\simulation1.sim ] 


 ****     BJT MODEL PARAMETERS


******************************************************************************




               X_U1.x_lm741.qx 
               NPN             
       LEVEL    1            
          IS  800.000000E-18 
          BF   93.75         
          NF    1            
          BR    1            
          NR    1            
         ISS    0            
          RE    0            
          RC    0            
         CJE    0            
         VJE     .75         
         CJC    0            
         VJC     .75         
         MJC     .33         
        XCJC    1            
         CJS    0            
         VJS     .75         
          KF    0            
          AF    1            
          CN    2.42         
           D     .87         


**** 05/16/21 16:53:34 ***** PSpice 16.6.0 (October 2012) ***** ID# 0 ********

 ** Profile: "SCHEMATIC1-simulation1"  [ D:\Experiment6\6-10\10-pspicefiles\schematic1\simulation1.sim ] 


 ****     INITIAL TRANSIENT SOLUTION       TEMPERATURE =   27.000 DEG C


******************************************************************************



 NODE   VOLTAGE     NODE   VOLTAGE     NODE   VOLTAGE     NODE   VOLTAGE


( +15V)   15.0000  ( -15V)  -15.0000  (N09691)-797.6E-06 (N09697)    -.0010     

(N09791)    0.0000 (N09801)-816.9E-06 (N10120)-924.0E-06 (N112370)-462.9E-06    

(X_U1.x_lm741.6) 95.49E-09            (X_U1.x_lm741.7)    -.0010                

(X_U1.x_lm741.8)    -.0010            (X_U1.x_lm741.9)    0.0000                

(X_U1.x_lm741.10)    -.6085           (X_U1.x_lm741.11)   14.9600               

(X_U1.x_lm741.12)   14.9600           (X_U1.x_lm741.13)    -.5946               

(X_U1.x_lm741.14)    -.5946           (X_U1.x_lm741.53)   14.0000               

(X_U1.x_lm741.54)  -14.0000           (X_U1.x_lm741.90)-21.02E-06               

(X_U1.x_lm741.91)   40.0000           (X_U1.x_lm741.92)  -40.0000               

(X_U1.x_lm741.99)    0.0000           




    VOLTAGE SOURCE CURRENTS
    NAME         CURRENT

    V_V4        -7.976E-08
    V_V3        -1.667E-03
    V_V2        -1.667E-03
    X_U1.x_lm741.vb   9.549E-13
    X_U1.x_lm741.vc   1.400E-11
    X_U1.x_lm741.ve   1.455E-11
    X_U1.x_lm741.vlim  -2.102E-08
    X_U1.x_lm741.vlp  -4.000E-11
    X_U1.x_lm741.vln  -4.000E-11

    TOTAL POWER DISSIPATION   5.00E-02  WATTS



          JOB CONCLUDED

**** 05/16/21 16:53:34 ***** PSpice 16.6.0 (October 2012) ***** ID# 0 ********

 ** Profile: "SCHEMATIC1-simulation1"  [ D:\Experiment6\6-10\10-pspicefiles\schematic1\simulation1.sim ] 


 ****     JOB STATISTICS SUMMARY


******************************************************************************



  Total job time (using Solver 1)   =         .25
