
**** 05/16/21 14:08:47 ***** PSpice 16.6.0 (October 2012) ***** ID# 0 ********

 ** Profile: "SCHEMATIC1-simulation1"  [ D:\EXPERIMENT6\6-4\4-PSpiceFiles\SCHEMATIC1\simulation1.sim ] 


 ****     CIRCUIT DESCRIPTION


******************************************************************************




** Creating circuit file "simulation1.cir" 
** WARNING: THIS AUTOMATICALLY GENERATED FILE MAY BE OVERWRITTEN BY SUBSEQUENT SIMULATIONS

*Libraries: 
* Profile Libraries :
* Local Libraries :
* From [PSPICE NETLIST] section of D:\Cadence\Cadence\SPB_Data\cdssetup\OrCAD_PSpice/16.6.0/PSpice.ini file:
.lib "nom.lib" 

*Analysis directives: 
.TRAN  0 0.2s 0 0.1ms 
.OPTIONS ADVCONV
.PROBE64 V(alias(*)) I(alias(*)) W(alias(*)) D(alias(*)) NOISE(alias(*)) 
.INC "..\SCHEMATIC1.net" 



**** INCLUDING SCHEMATIC1.net ****
* source 4
V_V2         +15V 0 15Vdc
R_R1         N04977 N04883  10k TC=0,0 
R_R2         N04883 N04837  20k TC=0,0 
V_V3         0 -15V 15Vdc
X_U1         N05057 N04883 +15V -15V N04837 LM741
R_R3         0 N05057  4k TC=0,0 
V_V5         N04977 0  
+SIN 0 2 50 0 0 0
V_V6         N05269 0  
+SIN 0 0.5 50 0 0 0
R_R4         N05269 N04883  10k TC=0,0 

**** RESUMING simulation1.cir ****
.END

**** 05/16/21 14:08:47 ***** PSpice 16.6.0 (October 2012) ***** ID# 0 ********

 ** Profile: "SCHEMATIC1-simulation1"  [ D:\EXPERIMENT6\6-4\4-PSpiceFiles\SCHEMATIC1\simulation1.sim ] 


 ****     Diode MODEL PARAMETERS


******************************************************************************




               X_U1.x_lm741.dx X_U1.x_lm741.dy 
          IS  800.000000E-18  800.000000E-18 
          RS    1               1.000000E-03 
         CJO                   10.000000E-12 


**** 05/16/21 14:08:47 ***** PSpice 16.6.0 (October 2012) ***** ID# 0 ********

 ** Profile: "SCHEMATIC1-simulation1"  [ D:\EXPERIMENT6\6-4\4-PSpiceFiles\SCHEMATIC1\simulation1.sim ] 


 ****     BJT MODEL PARAMETERS


******************************************************************************




               X_U1.x_lm741.qx 
               NPN             
       LEVEL    1            
          IS  800.000000E-18 
          BF   93.75         
          NF    1            
          BR    1            
          NR    1            
         ISS    0            
          RE    0            
          RC    0            
         CJE    0            
         VJE     .75         
         CJC    0            
         VJC     .75         
         MJC     .33         
        XCJC    1            
         CJS    0            
         VJS     .75         
          KF    0            
          AF    1            
          CN    2.42         
           D     .87         


**** 05/16/21 14:08:47 ***** PSpice 16.6.0 (October 2012) ***** ID# 0 ********

 ** Profile: "SCHEMATIC1-simulation1"  [ D:\EXPERIMENT6\6-4\4-PSpiceFiles\SCHEMATIC1\simulation1.sim ] 


 ****     INITIAL TRANSIENT SOLUTION       TEMPERATURE =   27.000 DEG C


******************************************************************************



 NODE   VOLTAGE     NODE   VOLTAGE     NODE   VOLTAGE     NODE   VOLTAGE


( +15V)   15.0000  ( -15V)  -15.0000  (N04837) 97.08E-06 (N04883)-299.6E-06     

(N04977)    0.0000 (N05057)-318.9E-06 (N05269)    0.0000                        

(X_U1.x_lm741.6)-9.699E-09            (X_U1.x_lm741.7) 98.07E-06                

(X_U1.x_lm741.8) 98.07E-06            (X_U1.x_lm741.9)    0.0000                

(X_U1.x_lm741.10)    -.6080           (X_U1.x_lm741.11)   14.9600               

(X_U1.x_lm741.12)   14.9600           (X_U1.x_lm741.13)    -.5941               

(X_U1.x_lm741.14)    -.5941           (X_U1.x_lm741.53)   14.0000               

(X_U1.x_lm741.54)  -14.0000           (X_U1.x_lm741.90) 19.84E-06               

(X_U1.x_lm741.91)   40.0000           (X_U1.x_lm741.92)  -40.0000               

(X_U1.x_lm741.99)    0.0000           




    VOLTAGE SOURCE CURRENTS
    NAME         CURRENT

    V_V2        -1.667E-03
    V_V3        -1.667E-03
    V_V5        -2.996E-08
    V_V6        -2.996E-08
    X_U1.x_lm741.vb  -9.699E-14
    X_U1.x_lm741.vc   1.400E-11
    X_U1.x_lm741.ve   1.455E-11
    X_U1.x_lm741.vlim   1.984E-08
    X_U1.x_lm741.vlp  -4.000E-11
    X_U1.x_lm741.vln  -4.000E-11

    TOTAL POWER DISSIPATION   5.00E-02  WATTS



          JOB CONCLUDED

**** 05/16/21 14:08:47 ***** PSpice 16.6.0 (October 2012) ***** ID# 0 ********

 ** Profile: "SCHEMATIC1-simulation1"  [ D:\EXPERIMENT6\6-4\4-PSpiceFiles\SCHEMATIC1\simulation1.sim ] 


 ****     JOB STATISTICS SUMMARY


******************************************************************************



  Total job time (using Solver 1)   =         .08
