
**** 06/02/21 15:18:49 ***** PSpice 16.6.0 (October 2012) ***** ID# 0 ********

 ** Profile: "SCHEMATIC1-cons"  [ D:\EXPERIMENT7\7-2\7-2-PSpiceFiles\SCHEMATIC1\cons.sim ] 


 ****     CIRCUIT DESCRIPTION


******************************************************************************




** Creating circuit file "cons.cir" 
** WARNING: THIS AUTOMATICALLY GENERATED FILE MAY BE OVERWRITTEN BY SUBSEQUENT SIMULATIONS

*Libraries: 
* Profile Libraries :
* Local Libraries :
* From [PSPICE NETLIST] section of D:\Cadence\Cadence\SPB_Data\cdssetup\OrCAD_PSpice/16.6.0/PSpice.ini file:
.lib "nom.lib" 

*Analysis directives: 
.TRAN  0 3070ms 3s 
.OPTIONS ADVCONV
.PROBE64 V(alias(*)) I(alias(*)) W(alias(*)) D(alias(*)) NOISE(alias(*)) 
.INC "..\SCHEMATIC1.net" 



**** INCLUDING SCHEMATIC1.net ****
* source 7-2
R_R1         N042374 N04393  2k TC=0,0 
X_U1         N04285 N04439 +15V -15V N042374 LM741
C_C1         0 N04439  0.1u  TC=0,0 
R_R4         0 N04285  100k TC=0,0 
D_D4         N04393 N044871 D1N4734 
V_V2         +15V 0 15Vdc
V_V3         0 -15V 15Vdc
R_R2         N04439 N04754  2k TC=0,0 
D_D3         0 N044871 D1N4734 
R_R3         N04285 N04393  100k TC=0,0 
D_D5         N04754 N04393 D1N4007 
D_D6         N04929 N04754 D1N4007 
R_R5         N04929 N04393  100k TC=0,0 

**** RESUMING cons.cir ****
.END

**** 06/02/21 15:18:49 ***** PSpice 16.6.0 (October 2012) ***** ID# 0 ********

 ** Profile: "SCHEMATIC1-cons"  [ D:\EXPERIMENT7\7-2\7-2-PSpiceFiles\SCHEMATIC1\cons.sim ] 


 ****     Diode MODEL PARAMETERS


******************************************************************************




               D1N4734         D1N4007         D1N4001         X_U1.x_lm741.dx 
          IS    1.085000E-15   14.110000E-09   14.110000E-09  800.000000E-18 
           N                    1.984           1.984                        
         ISR    2.811000E-09                                                 
         IKF                   94.81           94.81                         
          BV    5.6             1.500000E+03   75                            
         IBV     .37157        10.000000E-06   10.000000E-06                 
         NBV     .64726                                                      
        IBVL    1.000000E-03                                                 
        NBVL    6.5761                                                       
          RS     .7945           .03389          .03389         1            
          TT                    5.700000E-06    5.700000E-06                 
         CJO  157.000000E-12   25.890000E-12   25.890000E-12                 
          VJ     .75             .3245           .3245                       
           M     .2966           .44             .44                         
        TBV1  267.860000E-06                                                 


               X_U1.x_lm741.dy 
          IS  800.000000E-18 
          RS    1.000000E-03 
         CJO   10.000000E-12 


**** 06/02/21 15:18:49 ***** PSpice 16.6.0 (October 2012) ***** ID# 0 ********

 ** Profile: "SCHEMATIC1-cons"  [ D:\EXPERIMENT7\7-2\7-2-PSpiceFiles\SCHEMATIC1\cons.sim ] 


 ****     BJT MODEL PARAMETERS


******************************************************************************




               X_U1.x_lm741.qx 
               NPN             
       LEVEL    1            
          IS  800.000000E-18 
          BF   93.75         
          NF    1            
          BR    1            
          NR    1            
         ISS    0            
          RE    0            
          RC    0            
         CJE    0            
         VJE     .75         
         CJC    0            
         VJC     .75         
         MJC     .33         
        XCJC    1            
         CJS    0            
         VJS     .75         
          KF    0            
          AF    1            
          CN    2.42         
           D     .87         


**** 06/02/21 15:18:49 ***** PSpice 16.6.0 (October 2012) ***** ID# 0 ********

 ** Profile: "SCHEMATIC1-cons"  [ D:\EXPERIMENT7\7-2\7-2-PSpiceFiles\SCHEMATIC1\cons.sim ] 


 ****     INITIAL TRANSIENT SOLUTION       TEMPERATURE =   27.000 DEG C


******************************************************************************



 NODE   VOLTAGE     NODE   VOLTAGE     NODE   VOLTAGE     NODE   VOLTAGE


( +15V)   15.0000  ( -15V)  -15.0000  (N04285)     .0892 (N04393)     .1865     

(N04439)     .0893 (N04754)     .0894 (N04929)     .1797 (N042374)     .1886    

(N044871)     .1503                   (X_U1.x_lm741.6)-17.79E-06                

(X_U1.x_lm741.7)     .1886            (X_U1.x_lm741.8)     .1886                

(X_U1.x_lm741.9)    0.0000            (X_U1.x_lm741.10)    -.5184               

(X_U1.x_lm741.11)   14.9600           (X_U1.x_lm741.12)   14.9600               

(X_U1.x_lm741.13)    -.5046           (X_U1.x_lm741.14)    -.5046               

(X_U1.x_lm741.53)   14.0000           (X_U1.x_lm741.54)  -14.0000               

(X_U1.x_lm741.90)     .0011           (X_U1.x_lm741.91)   40.0000               

(X_U1.x_lm741.92)  -40.0000           (X_U1.x_lm741.99)    0.0000           




    VOLTAGE SOURCE CURRENTS
    NAME         CURRENT

    V_V2        -1.667E-03
    V_V3        -1.667E-03
    X_U1.x_lm741.vb  -1.779E-10
    X_U1.x_lm741.vc   1.381E-11
    X_U1.x_lm741.ve   1.474E-11
    X_U1.x_lm741.vlim   1.055E-06
    X_U1.x_lm741.vlp  -4.000E-11
    X_U1.x_lm741.vln  -4.001E-11

    TOTAL POWER DISSIPATION   5.00E-02  WATTS



          JOB CONCLUDED

**** 06/02/21 15:18:49 ***** PSpice 16.6.0 (October 2012) ***** ID# 0 ********

 ** Profile: "SCHEMATIC1-cons"  [ D:\EXPERIMENT7\7-2\7-2-PSpiceFiles\SCHEMATIC1\cons.sim ] 


 ****     JOB STATISTICS SUMMARY


******************************************************************************



  Total job time (using Solver 1)   =         .80
