
**** 05/16/21 15:31:11 ***** PSpice 16.6.0 (October 2012) ***** ID# 0 ********

 ** Profile: "SCHEMATIC1-simulation1"  [ D:\EXPERIMENT6\6-9\9-PSpiceFiles\SCHEMATIC1\simulation1.sim ] 


 ****     CIRCUIT DESCRIPTION


******************************************************************************




** Creating circuit file "simulation1.cir" 
** WARNING: THIS AUTOMATICALLY GENERATED FILE MAY BE OVERWRITTEN BY SUBSEQUENT SIMULATIONS

*Libraries: 
* Profile Libraries :
* Local Libraries :
* From [PSPICE NETLIST] section of D:\Cadence\Cadence\SPB_Data\cdssetup\OrCAD_PSpice/16.6.0/PSpice.ini file:
.lib "nom.lib" 

*Analysis directives: 
.TRAN  0 10ms 1us 
.OPTIONS ADVCONV
.PROBE64 V(alias(*)) I(alias(*)) W(alias(*)) D(alias(*)) NOISE(alias(*)) 
.INC "..\SCHEMATIC1.net" 



**** INCLUDING SCHEMATIC1.net ****
* source 9
X_U1         N09604 N09494 +15V -15V N09500 LM741
V_V2         +15V 0 15Vdc
V_V3         0 -15V 15Vdc
R_R1         N09933 N09604  1k TC=0,0 
V_V5         N09494 0  
+PULSE -5 5 0.1ms 0.5ms 0.5ms 0 1ms
R_R2         N09604 N09500  10k TC=0,0 
V_V6         N09933 0 0Vdc

**** RESUMING simulation1.cir ****
.END

**** 05/16/21 15:31:11 ***** PSpice 16.6.0 (October 2012) ***** ID# 0 ********

 ** Profile: "SCHEMATIC1-simulation1"  [ D:\EXPERIMENT6\6-9\9-PSpiceFiles\SCHEMATIC1\simulation1.sim ] 


 ****     Diode MODEL PARAMETERS


******************************************************************************




               X_U1.x_lm741.dx X_U1.x_lm741.dy 
          IS  800.000000E-18  800.000000E-18 
          RS    1               1.000000E-03 
         CJO                   10.000000E-12 


**** 05/16/21 15:31:11 ***** PSpice 16.6.0 (October 2012) ***** ID# 0 ********

 ** Profile: "SCHEMATIC1-simulation1"  [ D:\EXPERIMENT6\6-9\9-PSpiceFiles\SCHEMATIC1\simulation1.sim ] 


 ****     BJT MODEL PARAMETERS


******************************************************************************




               X_U1.x_lm741.qx 
               NPN             
       LEVEL    1            
          IS  800.000000E-18 
          BF   93.75         
          NF    1            
          BR    1            
          NR    1            
         ISS    0            
          RE    0            
          RC    0            
         CJE    0            
         VJE     .75         
         CJC    0            
         VJC     .75         
         MJC     .33         
        XCJC    1            
         CJS    0            
         VJS     .75         
          KF    0            
          AF    1            
          CN    2.42         
           D     .87         


**** 05/16/21 15:31:11 ***** PSpice 16.6.0 (October 2012) ***** ID# 0 ********

 ** Profile: "SCHEMATIC1-simulation1"  [ D:\EXPERIMENT6\6-9\9-PSpiceFiles\SCHEMATIC1\simulation1.sim ] 


 ****     INITIAL TRANSIENT SOLUTION       TEMPERATURE =   27.000 DEG C


******************************************************************************



 NODE   VOLTAGE     NODE   VOLTAGE     NODE   VOLTAGE     NODE   VOLTAGE


( +15V)   15.0000  ( -15V)  -15.0000  (N09494)   -5.0000 (N09500)   14.8150     

(N09604)    1.3467 (N09933)    0.0000 (X_U1.x_lm741.6)   -1.5049                

(X_U1.x_lm741.7)   16.8460            (X_U1.x_lm741.8)   16.8460                

(X_U1.x_lm741.9)    0.0000            (X_U1.x_lm741.10)     .7069               

(X_U1.x_lm741.11)   15.0000           (X_U1.x_lm741.12)   14.9200               

(X_U1.x_lm741.13)     .7069           (X_U1.x_lm741.14)     .7348               

(X_U1.x_lm741.53)   14.0000           (X_U1.x_lm741.54)  -14.0000               

(X_U1.x_lm741.90)   40.6060           (X_U1.x_lm741.91)   40.0000               

(X_U1.x_lm741.92)  -40.0000           (X_U1.x_lm741.99)    0.0000           




    VOLTAGE SOURCE CURRENTS
    NAME         CURRENT

    V_V2         3.759E-02
    V_V3        -1.667E-03
    V_V5         2.006E-11
    V_V6         1.347E-03
    X_U1.x_lm741.vb  -1.505E-05
    X_U1.x_lm741.vc  -3.926E-02
    X_U1.x_lm741.ve   2.937E-11
    X_U1.x_lm741.vlim   4.061E-02
    X_U1.x_lm741.vlp   1.202E-05
    X_U1.x_lm741.vln  -8.061E-11

    TOTAL POWER DISSIPATION  -5.00E-01  WATTS



          JOB CONCLUDED

**** 05/16/21 15:31:11 ***** PSpice 16.6.0 (October 2012) ***** ID# 0 ********

 ** Profile: "SCHEMATIC1-simulation1"  [ D:\EXPERIMENT6\6-9\9-PSpiceFiles\SCHEMATIC1\simulation1.sim ] 


 ****     JOB STATISTICS SUMMARY


******************************************************************************



  Total job time (using Solver 1)   =         .06
