
**** 05/16/21 15:12:28 ***** PSpice 16.6.0 (October 2012) ***** ID# 0 ********

 ** Profile: "SCHEMATIC1-simulation1"  [ D:\EXPERIMENT6\6-7\7-PSpiceFiles\SCHEMATIC1\simulation1.sim ] 


 ****     CIRCUIT DESCRIPTION


******************************************************************************




** Creating circuit file "simulation1.cir" 
** WARNING: THIS AUTOMATICALLY GENERATED FILE MAY BE OVERWRITTEN BY SUBSEQUENT SIMULATIONS

*Libraries: 
* Profile Libraries :
* Local Libraries :
* From [PSPICE NETLIST] section of D:\Cadence\Cadence\SPB_Data\cdssetup\OrCAD_PSpice/16.6.0/PSpice.ini file:
.lib "nom.lib" 

*Analysis directives: 
.TRAN  0 10ms 1us 
.OPTIONS ADVCONV
.PROBE64 V(alias(*)) I(alias(*)) W(alias(*)) D(alias(*)) NOISE(alias(*)) 
.INC "..\SCHEMATIC1.net" 



**** INCLUDING SCHEMATIC1.net ****
* source 7
R_R2         N07945 N08170  100 TC=0,0 
V_V3         0 -15V 15Vdc
V_V4         N07945 0  
+PULSE -1 1 0.1ms 0.5ms 0.5ms 0 1ms
V_V2         +15V 0 15Vdc
R_R3         0 N07859  10k TC=0,0 
X_U1         N07859 N08157 +15V -15V N07777 LM741
C_C1         N08170 N08157  0.01u  TC=0,0 
R_R4         N08157 N07777  10k TC=0,0 

**** RESUMING simulation1.cir ****
.END

**** 05/16/21 15:12:28 ***** PSpice 16.6.0 (October 2012) ***** ID# 0 ********

 ** Profile: "SCHEMATIC1-simulation1"  [ D:\EXPERIMENT6\6-7\7-PSpiceFiles\SCHEMATIC1\simulation1.sim ] 


 ****     Diode MODEL PARAMETERS


******************************************************************************




               X_U1.x_lm741.dx X_U1.x_lm741.dy 
          IS  800.000000E-18  800.000000E-18 
          RS    1               1.000000E-03 
         CJO                   10.000000E-12 


**** 05/16/21 15:12:28 ***** PSpice 16.6.0 (October 2012) ***** ID# 0 ********

 ** Profile: "SCHEMATIC1-simulation1"  [ D:\EXPERIMENT6\6-7\7-PSpiceFiles\SCHEMATIC1\simulation1.sim ] 


 ****     BJT MODEL PARAMETERS


******************************************************************************




               X_U1.x_lm741.qx 
               NPN             
       LEVEL    1            
          IS  800.000000E-18 
          BF   93.75         
          NF    1            
          BR    1            
          NR    1            
         ISS    0            
          RE    0            
          RC    0            
         CJE    0            
         VJE     .75         
         CJC    0            
         VJC     .75         
         MJC     .33         
        XCJC    1            
         CJS    0            
         VJS     .75         
          KF    0            
          AF    1            
          CN    2.42         
           D     .87         


**** 05/16/21 15:12:28 ***** PSpice 16.6.0 (October 2012) ***** ID# 0 ********

 ** Profile: "SCHEMATIC1-simulation1"  [ D:\EXPERIMENT6\6-7\7-PSpiceFiles\SCHEMATIC1\simulation1.sim ] 


 ****     INITIAL TRANSIENT SOLUTION       TEMPERATURE =   27.000 DEG C


******************************************************************************



 NODE   VOLTAGE     NODE   VOLTAGE     NODE   VOLTAGE     NODE   VOLTAGE


( +15V)   15.0000  ( -15V)  -15.0000  (N07777) 19.66E-06 (N07859)-797.2E-06     

(N07945)   -1.0000 (N08157)-777.9E-06 (N08170)   -1.0000                        

(X_U1.x_lm741.6)-3.334E-09            (X_U1.x_lm741.7) 23.65E-06                

(X_U1.x_lm741.8) 23.65E-06            (X_U1.x_lm741.9)    0.0000                

(X_U1.x_lm741.10)    -.6085           (X_U1.x_lm741.11)   14.9600               

(X_U1.x_lm741.12)   14.9600           (X_U1.x_lm741.13)    -.5946               

(X_U1.x_lm741.14)    -.5946           (X_U1.x_lm741.53)   14.0000               

(X_U1.x_lm741.54)  -14.0000           (X_U1.x_lm741.90) 79.76E-06               

(X_U1.x_lm741.91)   40.0000           (X_U1.x_lm741.92)  -40.0000               

(X_U1.x_lm741.99)    0.0000           




    VOLTAGE SOURCE CURRENTS
    NAME         CURRENT

    V_V3        -1.667E-03
    V_V4         0.000E+00
    V_V2        -1.667E-03
    X_U1.x_lm741.vb  -3.334E-14
    X_U1.x_lm741.vc   1.400E-11
    X_U1.x_lm741.ve   1.433E-11
    X_U1.x_lm741.vlim   7.976E-08
    X_U1.x_lm741.vlp  -4.000E-11
    X_U1.x_lm741.vln  -4.000E-11

    TOTAL POWER DISSIPATION   5.00E-02  WATTS



          JOB CONCLUDED

**** 05/16/21 15:12:28 ***** PSpice 16.6.0 (October 2012) ***** ID# 0 ********

 ** Profile: "SCHEMATIC1-simulation1"  [ D:\EXPERIMENT6\6-7\7-PSpiceFiles\SCHEMATIC1\simulation1.sim ] 


 ****     JOB STATISTICS SUMMARY


******************************************************************************



  Total job time (using Solver 1)   =         .08
