
**** 06/02/21 16:32:39 ***** PSpice 16.6.0 (October 2012) ***** ID# 0 ********

 ** Profile: "SCHEMATIC1-cons2"  [ D:\Experiment7\7-4\7-4-pspicefiles\schematic1\cons2.sim ] 


 ****     CIRCUIT DESCRIPTION


******************************************************************************




** Creating circuit file "cons2.cir" 
** WARNING: THIS AUTOMATICALLY GENERATED FILE MAY BE OVERWRITTEN BY SUBSEQUENT SIMULATIONS

*Libraries: 
* Profile Libraries :
* Local Libraries :
* From [PSPICE NETLIST] section of D:\Cadence\Cadence\SPB_Data\cdssetup\OrCAD_PSpice/16.6.0/PSpice.ini file:
.lib "nom.lib" 

*Analysis directives: 
.TRAN  0 30ms 20ms 10us 
.OPTIONS ADVCONV
.PROBE64 V(alias(*)) I(alias(*)) W(alias(*)) D(alias(*)) NOISE(alias(*)) 
.INC "..\SCHEMATIC1.net" 



**** INCLUDING SCHEMATIC1.net ****
* source 7-4
X_U1         N05583 0 +15V -15V N055354 LM741
D_D4         N05627 N056891 D1N4734 
R_R3         N05583 N05627  100k TC=0,0 
V_V3         0 -15V 15Vdc
D_D3         0 N056891 D1N4734 
C_C1         N05769 N05851  0.1u  TC=0,0 
X_U2         0 N05769 +15V -15V N05851 LM741
R_R1         N055354 N05627  2k TC=0,0 
V_V2         +15V 0 15Vdc
R_R5         N05583 N05851  16.13k TC=0,0 
D_D5         N05627 N05769 D1N4007 
R_R6         N06152 N05769  73k TC=0,0 
R_R7         -15V N06152  2k TC=0,0 

**** RESUMING cons2.cir ****
.END

**** 06/02/21 16:32:39 ***** PSpice 16.6.0 (October 2012) ***** ID# 0 ********

 ** Profile: "SCHEMATIC1-cons2"  [ D:\Experiment7\7-4\7-4-pspicefiles\schematic1\cons2.sim ] 


 ****     Diode MODEL PARAMETERS


******************************************************************************




               D1N4734         D1N4007         D1N4001         X_U1.x_lm741.dx 
          IS    1.085000E-15   14.110000E-09   14.110000E-09  800.000000E-18 
           N                    1.984           1.984                        
         ISR    2.811000E-09                                                 
         IKF                   94.81           94.81                         
          BV    5.6             1.500000E+03   75                            
         IBV     .37157        10.000000E-06   10.000000E-06                 
         NBV     .64726                                                      
        IBVL    1.000000E-03                                                 
        NBVL    6.5761                                                       
          RS     .7945           .03389          .03389         1            
          TT                    5.700000E-06    5.700000E-06                 
         CJO  157.000000E-12   25.890000E-12   25.890000E-12                 
          VJ     .75             .3245           .3245                       
           M     .2966           .44             .44                         
        TBV1  267.860000E-06                                                 


               X_U1.x_lm741.dy X_U2.x_lm741.dx X_U2.x_lm741.dy 
          IS  800.000000E-18  800.000000E-18  800.000000E-18 
          RS    1.000000E-03    1               1.000000E-03 
         CJO   10.000000E-12                   10.000000E-12 


**** 06/02/21 16:32:39 ***** PSpice 16.6.0 (October 2012) ***** ID# 0 ********

 ** Profile: "SCHEMATIC1-cons2"  [ D:\Experiment7\7-4\7-4-pspicefiles\schematic1\cons2.sim ] 


 ****     BJT MODEL PARAMETERS


******************************************************************************




               X_U1.x_lm741.qx X_U2.x_lm741.qx 
               NPN             NPN             
       LEVEL    1               1            
          IS  800.000000E-18  800.000000E-18 
          BF   93.75           93.75         
          NF    1               1            
          BR    1               1            
          NR    1               1            
         ISS    0               0            
          RE    0               0            
          RC    0               0            
         CJE    0               0            
         VJE     .75             .75         
         CJC    0               0            
         VJC     .75             .75         
         MJC     .33             .33         
        XCJC    1               1            
         CJS    0               0            
         VJS     .75             .75         
          KF    0               0            
          AF    1               1            
          CN    2.42            2.42         
           D     .87             .87         


**** 06/02/21 16:32:39 ***** PSpice 16.6.0 (October 2012) ***** ID# 0 ********

 ** Profile: "SCHEMATIC1-cons2"  [ D:\Experiment7\7-4\7-4-pspicefiles\schematic1\cons2.sim ] 


 ****     INITIAL TRANSIENT SOLUTION       TEMPERATURE =   27.000 DEG C


******************************************************************************



 NODE   VOLTAGE     NODE   VOLTAGE     NODE   VOLTAGE     NODE   VOLTAGE


( +15V)   15.0000  ( -15V)  -15.0000  (N05583)-14.58E-06 (N05627)     .4906     

(N05769) 19.65E-06 (N05851)    -.0779 (N06152)  -14.6000 (N055354)     .9006    

(N056891)     .4506                   (X_U1.x_lm741.6)-87.81E-06                

(X_U1.x_lm741.7)     .9108            (X_U1.x_lm741.8)     .9108                

(X_U1.x_lm741.9)    0.0000            (X_U2.x_lm741.6) 7.407E-06                

(X_U2.x_lm741.7)    -.0781            (X_U2.x_lm741.8)    -.0781                

(X_U2.x_lm741.9)    0.0000            (X_U1.x_lm741.10)    -.6077               

(X_U1.x_lm741.11)   14.9600           (X_U1.x_lm741.12)   14.9600               

(X_U1.x_lm741.13)    -.5938           (X_U1.x_lm741.14)    -.5938               

(X_U1.x_lm741.53)   14.0000           (X_U1.x_lm741.54)  -14.0000               

(X_U1.x_lm741.90)     .2050           (X_U1.x_lm741.91)   40.0000               

(X_U1.x_lm741.92)  -40.0000           (X_U1.x_lm741.99)    0.0000               

(X_U2.x_lm741.10)    -.6077           (X_U2.x_lm741.11)   14.9600               

(X_U2.x_lm741.12)   14.9600           (X_U2.x_lm741.13)    -.5938               

(X_U2.x_lm741.14)    -.5938           (X_U2.x_lm741.53)   14.0000               

(X_U2.x_lm741.54)  -14.0000           (X_U2.x_lm741.90)    -.0048               

(X_U2.x_lm741.91)   40.0000           (X_U2.x_lm741.92)  -40.0000               

(X_U2.x_lm741.99)    0.0000           




    VOLTAGE SOURCE CURRENTS
    NAME         CURRENT

    V_V3        -3.534E-03
    V_V2        -3.334E-03
    X_U1.x_lm741.vb  -8.781E-10
    X_U1.x_lm741.vc   1.310E-11
    X_U1.x_lm741.ve   1.545E-11
    X_U1.x_lm741.vlim   2.050E-04
    X_U1.x_lm741.vlp  -3.980E-11
    X_U1.x_lm741.vln  -4.021E-11
    X_U2.x_lm741.vb   7.407E-11
    X_U2.x_lm741.vc   1.408E-11
    X_U2.x_lm741.ve   1.447E-11
    X_U2.x_lm741.vlim  -4.826E-06
    X_U2.x_lm741.vlp  -4.001E-11
    X_U2.x_lm741.vln  -4.000E-11

    TOTAL POWER DISSIPATION   1.03E-01  WATTS



          JOB CONCLUDED

**** 06/02/21 16:32:39 ***** PSpice 16.6.0 (October 2012) ***** ID# 0 ********

 ** Profile: "SCHEMATIC1-cons2"  [ D:\Experiment7\7-4\7-4-pspicefiles\schematic1\cons2.sim ] 


 ****     JOB STATISTICS SUMMARY


******************************************************************************



  Total job time (using Solver 1)   =         .36
